Freq.	V(n028)/i(V8)
1.00000000000000e+06	(5.89616978134054e+01dB,1.03030924422410e+02°)
1.00575862496284e+06	(5.89139303279124e+01dB,1.02963325162007e+02°)
1.01155041168714e+06	(5.88661395126367e+01dB,1.02896116685023e+02°)
1.01737555113905e+06	(5.88183256198946e+01dB,1.02829297383797e+02°)
1.02323423538443e+06	(5.87704888994640e+01dB,1.02762865653484e+02°)
1.02912665759514e+06	(5.87226295986026e+01dB,1.02696819892299e+02°)
1.03505301205549e+06	(5.86747479620645e+01dB,1.02631158501615e+02°)
1.04101349416858e+06	(5.86268442321288e+01dB,1.02565879886038e+02°)
1.04700830046275e+06	(5.85789186486182e+01dB,1.02500982453445e+02°)
1.05303762859809e+06	(5.85309714489165e+01dB,1.02436464615182e+02°)
1.05910167737295e+06	(5.84830028680032e+01dB,1.02372324786122e+02°)
1.06520064673045e+06	(5.84350131384607e+01dB,1.02308561384680e+02°)
1.07133473776515e+06	(5.83870024905036e+01dB,1.02245172833028e+02°)
1.07750415272960e+06	(5.83389711519939e+01dB,1.02182157557052e+02°)
1.08370909504107e+06	(5.82909193484669e+01dB,1.02119513986571e+02°)
1.08994976928823e+06	(5.82428473031518e+01dB,1.02057240555259e+02°)
1.09622638123790e+06	(5.81947552369997e+01dB,1.01995335700922e+02°)
1.10253913784182e+06	(5.81466433686767e+01dB,1.01933797865364e+02°)
1.10888824724350e+06	(5.80985119146247e+01dB,1.01872625494614e+02°)
1.11527391878507e+06	(5.80503610890458e+01dB,1.01811817038972e+02°)
1.12169636301419e+06	(5.80021911039475e+01dB,1.01751370953055e+02°)
1.12815579169097e+06	(5.79540021691522e+01dB,1.01691285695851e+02°)
1.13465241779498e+06	(5.79057944923164e+01dB,1.01631559730838e+02°)
1.14118645553224e+06	(5.78575682789501e+01dB,1.01572191526035e+02°)
1.14775812034232e+06	(5.78093237324477e+01dB,1.01513179554089e+02°)
1.15436762890542e+06	(5.77610610540925e+01dB,1.01454522292221e+02°)
1.16101519914953e+06	(5.77127804430851e+01dB,1.01396218222477e+02°)
1.16770105025759e+06	(5.76644820965689e+01dB,1.01338265831695e+02°)
1.17442540267474e+06	(5.76161662096261e+01dB,1.01280663611457e+02°)
1.18118847811557e+06	(5.75678329753288e+01dB,1.01223410058397e+02°)
1.18799049957147e+06	(5.75194825847280e+01dB,1.01166503674037e+02°)
1.19483169131792e+06	(5.74711152269049e+01dB,1.01109942964907e+02°)
1.20171227892193e+06	(5.74227310889495e+01dB,1.01053726442679e+02°)
1.20863248924948e+06	(5.73743303560174e+01dB,1.00997852624113e+02°)
1.21559255047297e+06	(5.73259132113269e+01dB,1.00942320031160e+02°)
1.22259269207877e+06	(5.72774798361798e+01dB,1.00887127190985e+02°)
1.22963314487476e+06	(5.72290304099915e+01dB,1.00832272636067e+02°)
1.23671414099797e+06	(5.71805651102932e+01dB,1.00777754904193e+02°)
1.24383591392222e+06	(5.71320841127575e+01dB,1.00723572538499e+02°)
1.25099869846581e+06	(5.70835875912235e+01dB,1.00669724087605e+02°)
1.25820273079927e+06	(5.70350757177005e+01dB,1.00616208105505e+02°)
1.26544824845316e+06	(5.69865486623942e+01dB,1.00563023151771e+02°)
1.27273549032589e+06	(5.69380065937213e+01dB,1.00510167791476e+02°)
1.28006469669157e+06	(5.68894496783340e+01dB,1.00457640595295e+02°)
1.28743610920799e+06	(5.68408780811249e+01dB,1.00405440139502e+02°)
1.29484997092453e+06	(5.67922919652605e+01dB,1.00353565006086e+02°)
1.30230652629023e+06	(5.67436914921737e+01dB,1.00302013782639e+02°)
1.30980602116179e+06	(5.66950768216143e+01dB,1.00250785062597e+02°)
1.31734870281173e+06	(5.66464481116280e+01dB,1.00199877445080e+02°)
1.32493481993651e+06	(5.65978055186152e+01dB,1.00149289535030e+02°)
1.33256462266473e+06	(5.65491491973001e+01dB,1.00099019943180e+02°)
1.34023836256540e+06	(5.65004793007895e+01dB,1.00049067286244e+02°)
1.34795629265623e+06	(5.64517959805657e+01dB,9.99994301866747e+01°)
1.35571866741194e+06	(5.64030993865066e+01dB,9.99501072729545e+01°)
1.36352574277268e+06	(5.63543896669062e+01dB,9.99010971794318e+01°)
1.37137777615249e+06	(5.63056669684852e+01dB,9.98523985465220e+01°)
1.37927502644772e+06	(5.62569314364146e+01dB,9.98040100205575e+01°)
1.38721775404564e+06	(5.62081832143168e+01dB,9.97559302539324e+01°)
1.39520622083298e+06	(5.61594224443041e+01dB,9.97081579051086e+01°)
1.40324069020458e+06	(5.61106492669672e+01dB,9.96606916385641e+01°)
1.41132142707207e+06	(5.60618638214112e+01dB,9.96135301249346e+01°)
1.41944869787259e+06	(5.60130662452613e+01dB,9.95666720409522e+01°)
1.42762277057763e+06	(5.59642566746805e+01dB,9.95201160694457e+01°)
1.43584391470180e+06	(5.59154352443812e+01dB,9.94738608994544e+01°)
1.44411240131174e+06	(5.58666020876478e+01dB,9.94279052262042e+01°)
1.45242850303508e+06	(5.58177573363409e+01dB,9.93822477510392e+01°)
1.46079249406940e+06	(5.57689011209225e+01dB,9.93368871815978e+01°)
1.46920465019128e+06	(5.57200335704621e+01dB,9.92918222317176e+01°)
1.47766524876539e+06	(5.56711548126509e+01dB,9.92470516214600e+01°)
1.48617456875365e+06	(5.56222649738223e+01dB,9.92025740771691e+01°)
1.49473289072441e+06	(5.55733641789669e+01dB,9.91583883314766e+01°)
1.50334049686171e+06	(5.55244525517367e+01dB,9.91144931232535e+01°)
1.51199767097459e+06	(5.54755302144622e+01dB,9.90708871977595e+01°)
1.52070469850642e+06	(5.54265972881746e+01dB,9.90275693064714e+01°)
1.52946186654434e+06	(5.53776538926076e+01dB,9.89845382072501e+01°)
1.53826946382874e+06	(5.53287001462231e+01dB,9.89417926643141e+01°)
1.54712778076271e+06	(5.52797361662095e+01dB,9.88993314481543e+01°)
1.55603710942172e+06	(5.52307620685109e+01dB,9.88571533356892e+01°)
1.56499774356314e+06	(5.51817779678252e+01dB,9.88152571101754e+01°)
1.57400997863601e+06	(5.51327839776377e+01dB,9.87736415612496e+01°)
1.58307411179074e+06	(5.50837802101968e+01dB,9.87323054849320e+01°)
1.59219044188892e+06	(5.50347667765759e+01dB,9.86912476836483e+01°)
1.60135926951318e+06	(5.49857437866457e+01dB,9.86504669662174e+01°)
1.61058089697707e+06	(5.49367113491089e+01dB,9.86099621478571e+01°)
1.61985562833507e+06	(5.48876695715009e+01dB,9.85697320501960e+01°)
1.62918376939260e+06	(5.48386185602076e+01dB,9.85297755012797e+01°)
1.63856562771608e+06	(5.47895584204818e+01dB,9.84900913356009e+01°)
1.64800151264309e+06	(5.47404892564418e+01dB,9.84506783940465e+01°)
1.65749173529260e+06	(5.46914111711012e+01dB,9.84115355239443e+01°)
1.66703660857515e+06	(5.46423242663650e+01dB,9.83726615790741e+01°)
1.67663644720326e+06	(5.45932286430509e+01dB,9.83340554196378e+01°)
1.68629156770173e+06	(5.45441244008933e+01dB,9.82957159122745e+01°)
1.69600228841813e+06	(5.44950116385659e+01dB,9.82576419300764e+01°)
1.70576892953324e+06	(5.44458904536824e+01dB,9.82198323525618e+01°)
1.71559181307169e+06	(5.43967609428176e+01dB,9.81822860657265e+01°)
1.72547126291249e+06	(5.43476232015020e+01dB,9.81450019619722e+01°)
1.73540760479976e+06	(5.42984773242551e+01dB,9.81079789401856e+01°)
1.74540116635346e+06	(5.42493234045819e+01dB,9.80712159056855e+01°)
1.75545227708019e+06	(5.42001615349875e+01dB,9.80347117702188e+01°)
1.76556126838406e+06	(5.41509918069879e+01dB,9.79984654519972e+01°)
1.77572847357760e+06	(5.41018143111151e+01dB,9.79624758756861e+01°)
1.78595422789277e+06	(5.40526291369466e+01dB,9.79267419723759e+01°)
1.79623886849200e+06	(5.40034363730883e+01dB,9.78912626795919e+01°)
1.80658273447932e+06	(5.39542361072116e+01dB,9.78560369413459e+01°)
1.81698616691152e+06	(5.39050284260445e+01dB,9.78210637080206e+01°)
1.82744950880944e+06	(5.38558134153867e+01dB,9.77863419364925e+01°)
1.83797310516919e+06	(5.38065911601240e+01dB,9.77518705900343e+01°)
1.84855730297365e+06	(5.37573617442420e+01dB,9.77176486383424e+01°)
1.85920245120379e+06	(5.37081252508259e+01dB,9.76836750575922e+01°)
1.86990890085027e+06	(5.36588817620695e+01dB,9.76499488302948e+01°)
1.88067700492494e+06	(5.36096313593010e+01dB,9.76164689454515e+01°)
1.89150711847254e+06	(5.35603741229710e+01dB,9.75832343984435e+01°)
1.90239959858236e+06	(5.35111101326852e+01dB,9.75502441910587e+01°)
1.91335480440005e+06	(5.34618394671894e+01dB,9.75174973314974e+01°)
1.92437309713944e+06	(5.34125622043978e+01dB,9.74849928343415e+01°)
1.93545484009444e+06	(5.33632784213967e+01dB,9.74527297205906e+01°)
1.94660039865106e+06	(5.33139881944456e+01dB,9.74207070176096e+01°)
1.95781014029941e+06	(5.32646915990071e+01dB,9.73889237591519e+01°)
1.96908443464583e+06	(5.32153887097294e+01dB,9.73573789853298e+01°)
1.98042365342512e+06	(5.31660796004701e+01dB,9.73260717426455e+01°)
1.99182817051274e+06	(5.31167643443102e+01dB,9.72950010839419e+01°)
2.00329836193714e+06	(5.30674430135535e+01dB,9.72641660684438e+01°)
2.01483460589220e+06	(5.30181156797321e+01dB,9.72335657616862e+01°)
2.02643728274969e+06	(5.29687824136251e+01dB,9.72031992355723e+01°)
2.03810677507176e+06	(5.29194432852679e+01dB,9.71730655683352e+01°)
2.04984346762362e+06	(5.28700983639484e+01dB,9.71431638445213e+01°)
2.06164774738619e+06	(5.28207477182195e+01dB,9.71134931549847e+01°)
2.07352000356887e+06	(5.27713914159248e+01dB,9.70840525969238e+01°)
2.08546062762237e+06	(5.27220295241739e+01dB,9.70548412738010e+01°)
2.09747001325161e+06	(5.26726621093882e+01dB,9.70258582954029e+01°)
2.10954855642873e+06	(5.26232892372725e+01dB,9.69971027777912e+01°)
2.12169665540610e+06	(5.25739109728518e+01dB,9.69685738432846e+01°)
2.13391471072950e+06	(5.25245273804695e+01dB,9.69402706204932e+01°)
2.14620312525127e+06	(5.24751385237813e+01dB,9.69121922442766e+01°)
2.15856230414367e+06	(5.24257444657869e+01dB,9.68843378557361e+01°)
2.17099265491216e+06	(5.23763452688218e+01dB,9.68567066022419e+01°)
2.18349458740887e+06	(5.23269409945708e+01dB,9.68292976373685e+01°)
2.19606851384615e+06	(5.22775317040767e+01dB,9.68021101209196e+01°)
2.20871484881009e+06	(5.22281174577319e+01dB,9.67751432189171e+01°)
2.22143400927424e+06	(5.21786983153158e+01dB,9.67483961035794e+01°)
2.23422641461335e+06	(5.21292743359736e+01dB,9.67218679533273e+01°)
2.24709248661718e+06	(5.20798455782473e+01dB,9.66955579527687e+01°)
2.26003264950442e+06	(5.20304121000628e+01dB,9.66694652926740e+01°)
2.27304732993669e+06	(5.19809739587392e+01dB,9.66435891699872e+01°)
2.28613695703258e+06	(5.19315312110177e+01dB,9.66179287878023e+01°)
2.29930196238182e+06	(5.18820839130356e+01dB,9.65924833553673e+01°)
2.31254278005949e+06	(5.18326321203647e+01dB,9.65672520880592e+01°)
2.32585984664038e+06	(5.17831758879966e+01dB,9.65422342073760e+01°)
2.33925360121331e+06	(5.17337152703546e+01dB,9.65174289409222e+01°)
2.35272448539567e+06	(5.16842503213131e+01dB,9.64928355224557e+01°)
2.36627294334795e+06	(5.16347810941856e+01dB,9.64684531917524e+01°)
2.37989942178840e+06	(5.15853076417375e+01dB,9.64442811947359e+01°)
2.39360437000776e+06	(5.15358300161988e+01dB,9.64203187833758e+01°)
2.40738823988405e+06	(5.14863482692687e+01dB,9.63965652156989e+01°)
2.42125148589749e+06	(5.14368624521140e+01dB,9.63730197557985e+01°)
2.43519456514549e+06	(5.13873726153846e+01dB,9.63496816738041e+01°)
2.44921793735771e+06	(5.13378788092163e+01dB,9.63265502458704e+01°)
2.46332206491121e+06	(5.12883810832386e+01dB,9.63036247541985e+01°)
2.47750741284572e+06	(5.12388794865732e+01dB,9.62809044869590e+01°)
2.49177444887896e+06	(5.11893740678576e+01dB,9.62583887383583e+01°)
2.50612364342204e+06	(5.11398648752287e+01dB,9.62360768085641e+01°)
2.52055546959501e+06	(5.10903519563451e+01dB,9.62139680037462e+01°)
2.53507040324244e+06	(5.10408353583848e+01dB,9.61920616360177e+01°)
2.54966892294911e+06	(5.09913151280656e+01dB,9.61703570234725e+01°)
2.56435151005578e+06	(5.09417913116230e+01dB,9.61488534901264e+01°)
2.57911864867508e+06	(5.08922639548444e+01dB,9.61275503659451e+01°)
2.59397082570747e+06	(5.08427331030592e+01dB,9.61064469868156e+01°)
2.60890853085726e+06	(5.07931988011488e+01dB,9.60855426945476e+01°)
2.62393225664882e+06	(5.07436610935560e+01dB,9.60648368368396e+01°)
2.63904249844276e+06	(5.06941200242732e+01dB,9.60443287672737e+01°)
2.65423975445229e+06	(5.06445756368779e+01dB,9.60240178453426e+01°)
2.66952452575964e+06	(5.05950279745115e+01dB,9.60039034363920e+01°)
2.68489731633259e+06	(5.05454770799018e+01dB,9.59839849116089e+01°)
2.70035863304108e+06	(5.04959229953461e+01dB,9.59642616480777e+01°)
2.71590898567393e+06	(5.04463657627483e+01dB,9.59447330286734e+01°)
2.73154888695563e+06	(5.03968054236035e+01dB,9.59253984421182e+01°)
2.74727885256327e+06	(5.03472420189970e+01dB,9.59062572829586e+01°)
2.76309940114352e+06	(5.02976755896384e+01dB,9.58873089515390e+01°)
2.77901105432976e+06	(5.02481061758309e+01dB,9.58685528539996e+01°)
2.79501433675923e+06	(5.01985338174999e+01dB,9.58499884022668e+01°)
2.81110977609038e+06	(5.01489585541974e+01dB,9.58316150140474e+01°)
2.82729790302026e+06	(5.00993804250887e+01dB,9.58134321127936e+01°)
2.84357925130197e+06	(5.00497994689801e+01dB,9.57954391277407e+01°)
2.85995435776233e+06	(5.00002157243166e+01dB,9.57776354938359e+01°)
2.87642376231952e+06	(4.99506292291674e+01dB,9.57600206517914e+01°)
2.89298800800092e+06	(4.99010400212675e+01dB,9.57425940480131e+01°)
2.90964764096099e+06	(4.98514481379904e+01dB,9.57253551346423e+01°)
2.92640321049930e+06	(4.98018536163637e+01dB,9.57083033695021e+01°)
2.94325526907861e+06	(4.97522564930786e+01dB,9.56914382161214e+01°)
2.96020437234313e+06	(4.97026568044917e+01dB,9.56747591437063e+01°)
2.97725107913682e+06	(4.96530545866293e+01dB,9.56582656271461e+01°)
2.99439595152177e+06	(4.96034498751855e+01dB,9.56419571469656e+01°)
3.01163955479683e+06	(4.95538427055367e+01dB,9.56258331893625e+01°)
3.02898245751616e+06	(4.95042331127395e+01dB,9.56098932461691e+01°)
3.04642523150802e+06	(4.94546211315422e+01dB,9.55941368148428e+01°)
3.06396845189360e+06	(4.94050067963841e+01dB,9.55785633984807e+01°)
3.08161269710603e+06	(4.93553901413916e+01dB,9.55631725057785e+01°)
3.09935854890939e+06	(4.93057712003998e+01dB,9.55479636510342e+01°)
3.11720659241793e+06	(4.92561500069518e+01dB,9.55329363541413e+01°)
3.13515741611535e+06	(4.92065265942883e+01dB,9.55180901405872e+01°)
3.15321161187422e+06	(4.91569009953723e+01dB,9.55034245414053e+01°)
3.17136977497548e+06	(4.91072732428785e+01dB,9.54889390932183e+01°)
3.18963250412805e+06	(4.90576433692041e+01dB,9.54746333382010e+01°)
3.20800040148860e+06	(4.90080114064767e+01dB,9.54605068240522e+01°)
3.22647407268141e+06	(4.89583773865529e+01dB,9.54465591040452e+01°)
3.24505412681831e+06	(4.89087413410139e+01dB,9.54327897369423e+01°)
3.26374117651877e+06	(4.88591033011862e+01dB,9.54191982870456e+01°)
3.28253583793012e+06	(4.88094632981443e+01dB,9.54057843241560e+01°)
3.30143873074784e+06	(4.87598213626883e+01dB,9.53925474235762e+01°)
3.32045047823601e+06	(4.87101775253945e+01dB,9.53794871661180e+01°)
3.33957170724785e+06	(4.86605318165742e+01dB,9.53666031380546e+01°)
3.35880304824640e+06	(4.86108842662962e+01dB,9.53538949311262e+01°)
3.37814513532529e+06	(4.85612349044086e+01dB,9.53413621425659e+01°)
3.39759860622967e+06	(4.85115837605037e+01dB,9.53290043750450e+01°)
3.41716410237721e+06	(4.84619308639503e+01dB,9.53168212366823e+01°)
3.43684226887928e+06	(4.84122762438991e+01dB,9.53048123410487e+01°)
3.45663375456219e+06	(4.83626199292628e+01dB,9.52929773071268e+01°)
3.47653921198861e+06	(4.83129619487407e+01dB,9.52813157593449e+01°)
3.49655929747905e+06	(4.82633023308252e+01dB,9.52698273275319e+01°)
3.51669467113357e+06	(4.82136411037819e+01dB,9.52585116469371e+01°)
3.53694599685344e+06	(4.81639782956742e+01dB,9.52473683581869e+01°)
3.55731394236314e+06	(4.81143139343577e+01dB,9.52363971073220e+01°)
3.57779917923228e+06	(4.80646480474932e+01dB,9.52255975457570e+01°)
3.59840238289784e+06	(4.80149806625385e+01dB,9.52149693302823e+01°)
3.61912423268633e+06	(4.79653118067521e+01dB,9.52045121230604e+01°)
3.63996541183630e+06	(4.79156415072125e+01dB,9.51942255916141e+01°)
3.66092660752077e+06	(4.78659697908068e+01dB,9.51841094088200e+01°)
3.68200851086996e+06	(4.78162966842274e+01dB,9.51741632528979e+01°)
3.70321181699405e+06	(4.77666222140061e+01dB,9.51643868074118e+01°)
3.72453722500607e+06	(4.77169464064818e+01dB,9.51547797612509e+01°)
3.74598543804501e+06	(4.76672692878215e+01dB,9.51453418086430e+01°)
3.76755716329897e+06	(4.76175908840380e+01dB,9.51360726491301e+01°)
3.78925311202847e+06	(4.75679112209488e+01dB,9.51269719875593e+01°)
3.81107399958991e+06	(4.75182303242337e+01dB,9.51180395340815e+01°)
3.83302054545918e+06	(4.74685482193965e+01dB,9.51092750041574e+01°)
3.85509347325534e+06	(4.74188649317968e+01dB,9.51006781185304e+01°)
3.87729351076451e+06	(4.73691804866264e+01dB,9.50922486032425e+01°)
3.89962138996385e+06	(4.73194949089358e+01dB,9.50839861896005e+01°)
3.92207784704572e+06	(4.72698082236246e+01dB,9.50758906141948e+01°)
3.94466362244192e+06	(4.72201204554493e+01dB,9.50679616188599e+01°)
3.96737946084811e+06	(4.71704316290256e+01dB,9.50601989507357e+01°)
3.99022611124841e+06	(4.71207417688405e+01dB,9.50526023621907e+01°)
4.01320432694002e+06	(4.70710508992241e+01dB,9.50451716108319e+01°)
4.03631486555811e+06	(4.70213590443993e+01dB,9.50379064595383e+01°)
4.05955848910079e+06	(4.69716662284448e+01dB,9.50308066764110e+01°)
4.08293596395424e+06	(4.69219724753219e+01dB,9.50238720347773e+01°)
4.10644806091794e+06	(4.68722778088704e+01dB,9.50171023132206e+01°)
4.13009555523014e+06	(4.68225822528061e+01dB,9.50104972955222e+01°)
4.15387922659340e+06	(4.67728858307307e+01dB,9.50040567706862e+01°)
4.17779985920028e+06	(4.67231885661393e+01dB,9.49977805329438e+01°)
4.20185824175922e+06	(4.66734904824039e+01dB,9.49916683817124e+01°)
4.22605516752053e+06	(4.66237916028107e+01dB,9.49857201216318e+01°)
4.25039143430255e+06	(4.65740919505190e+01dB,9.49799355625285e+01°)
4.27486784451796e+06	(4.65243915485993e+01dB,9.49743145194246e+01°)
4.29948520520024e+06	(4.64746904200246e+01dB,9.49688568125403e+01°)
4.32424432803027e+06	(4.64249885876795e+01dB,9.49635622672804e+01°)
4.34914602936308e+06	(4.63752860743389e+01dB,9.49584307142158e+01°)
4.37419113025481e+06	(4.63255829027006e+01dB,9.49534619891154e+01°)
4.39938045648972e+06	(4.62758790953838e+01dB,9.49486559329121e+01°)
4.42471483860749e+06	(4.62261746749055e+01dB,9.49440123916995e+01°)
4.45019511193054e+06	(4.61764696637196e+01dB,9.49395312167492e+01°)
4.47582211659161e+06	(4.61267640842013e+01dB,9.49352122645012e+01°)
4.50159669756144e+06	(4.60770579586396e+01dB,9.49310553965302e+01°)
4.52751970467666e+06	(4.60273513092625e+01dB,9.49270604795872e+01°)
4.55359199266776e+06	(4.59776441582300e+01dB,9.49232273855784e+01°)
4.57981442118732e+06	(4.59279365276257e+01dB,9.49195559915268e+01°)
4.60618785483834e+06	(4.58782284394896e+01dB,9.49160461796448e+01°)
4.63271316320274e+06	(4.58285199157886e+01dB,9.49126978372549e+01°)
4.65939122087003e+06	(4.57788109784275e+01dB,9.49095108568353e+01°)
4.68622290746617e+06	(4.57291016492722e+01dB,9.49064851360000e+01°)
4.71320910768253e+06	(4.56793919501246e+01dB,9.49036205774873e+01°)
4.74035071130512e+06	(4.56296819027494e+01dB,9.49009170891850e+01°)
4.76764861324385e+06	(4.55799715288563e+01dB,9.48983745840946e+01°)
4.79510371356212e+06	(4.55302608501166e+01dB,9.48959929803583e+01°)
4.82271691750645e+06	(4.54805498881617e+01dB,9.48937722012340e+01°)
4.85048913553631e+06	(4.54308386645817e+01dB,9.48917121751120e+01°)
4.87842128335419e+06	(4.53811272009387e+01dB,9.48898128354987e+01°)
4.90651428193576e+06	(4.53314155187613e+01dB,9.48880741210178e+01°)
4.93476905756024e+06	(4.52817036395479e+01dB,9.48864959754213e+01°)
4.96318654184095e+06	(4.52319915847690e+01dB,9.48850783475649e+01°)
4.99176767175603e+06	(4.51822793758761e+01dB,9.48838211914382e+01°)
5.02051338967930e+06	(4.51325670343003e+01dB,9.48827244661244e+01°)
5.04942464341137e+06	(4.50828545814490e+01dB,9.48817881358304e+01°)
5.07850238621090e+06	(4.50331420387257e+01dB,9.48810121698747e+01°)
5.10774757682597e+06	(4.49834294275099e+01dB,9.48803965426843e+01°)
5.13716117952577e+06	(4.49337167691839e+01dB,9.48799412337997e+01°)
5.16674416413231e+06	(4.48840040851100e+01dB,9.48796462278658e+01°)
5.19649750605249e+06	(4.48342913966594e+01dB,9.48795115146440e+01°)
5.22642218631018e+06	(4.47845787251966e+01dB,9.48795370889950e+01°)
5.25651919157860e+06	(4.47348660920852e+01dB,9.48797229508888e+01°)
5.28678951421287e+06	(4.46851535186971e+01dB,9.48800691054091e+01°)
5.31723415228269e+06	(4.46354410264173e+01dB,9.48805755627440e+01°)
5.34785410960529e+06	(4.45857286366287e+01dB,9.48812423381847e+01°)
